write to 0x50 ack data: 0x00 0x00 
write to 0x50 ack data: 0x00 
read to 0x50 ack data: 0xFA 0x00 0x7A 0x00 0x03 0x0C 0x0C 0x15 0x32 0x30 0x32 0x33 0x2D 0x30 0x35 0x2D 0x32 0x34 0x20 0x31 0x31 0x3A 0x30 0x38 0x3A 0x34 0x35 0x2E 0x30
write to 0x50 ack data: 0x00 0x00 
write to 0x50 ack data: 0x00 
read to 0x50 ack data: 0xFA 0x00 0x7A 0x00 0x03 0x0C 0x0C 0x15 0x32 0x30 0x32 0x33 0x2D 0x30 0x35 0x2D 0x32 0x34 0x20 0x31 0x31 0x3A 0x30 0x38 0x3A 0x34 0x35 0x2E 0x30
read to 0x5F ack data: 0x00
read to 0x5F ack data: 0x00
read to 0x5F ack data: 0x00
read to 0x5F ack data: 0x00
read to 0x5F ack data: 0x00
read to 0x5F ack data: 0x00
read to 0x5F ack data: 0x00
read to 0x5F ack data: 0x00
read to 0x5F ack data: 0x00
read to 0x5F ack data: 0x00
read to 0x5F ack data: 0x00
read to 0x5F ack data: 0x00
read to 0x5F ack data: 0x00
read to 0x5F ack data: 0x00
read to 0x5F ack data: 0x00
read to 0x5F ack data: 0x00
read to 0x5F ack data: 0x00
read to 0x5F ack data: 0x00
read to 0x5F ack data: 0x00
read to 0x5F ack data: 0x00
read to 0x5F ack data: 0x00
read to 0x5F ack data: 0x00
read to 0x5F ack data: 0x00
read to 0x5F ack data: 0x00
read to 0x5F ack data: 0x00
read to 0x5F ack data: 0x00
read to 0x5F ack data: 0x00
read to 0x5F ack data: 0x00
read to 0x5F ack data: 0x00
read to 0x5F ack data: 0x00
read to 0x5F ack data: 0x00
read to 0x5F ack data: 0x00
read to 0x5F ack data: 0x00
read to 0x5F ack data: 0x00
read to 0x5F ack data: 0x00
read to 0x5F ack data: 0x00
read to 0x5F ack data: 0x00
read to 0x5F ack data: 0x00
read to 0x5F ack data: 0x00
read to 0x5F ack data: 0x00
read to 0x5F ack data: 0x00
read to 0x5F ack data: 0x00
read to 0x5F ack data: 0x00
read to 0x5F ack data: 0x00
read to 0x5F ack data: 0x01
read to 0x5F ack data: 0x00
read to 0x5F ack data: 0x00
read to 0x5F ack data: 0x00
read to 0x5F ack data: 0x00
read to 0x5F ack data: 0x00
read to 0x5F ack data: 0x00
read to 0x5F ack data: 0x00
read to 0x5F ack data: 0x00
read to 0x5F ack data: 0x00
read to 0x5F ack data: 0x00
read to 0x5F ack data: 0x00
read to 0x5F ack data: 0x00
read to 0x5F ack data: 0x00
read to 0x5F ack data: 0x00
read to 0x5F ack data: 0x00
read to 0x5F ack data: 0x00
read to 0x5F ack data: 0x00
read to 0x5F ack data: 0x00
read to 0x5F ack data: 0x00
read to 0x5F ack data: 0x00
read to 0x5F ack data: 0x00
read to 0x5F ack data: 0x00
read to 0x5F ack data: 0x00
read to 0x5F ack data: 0x00
read to 0x5F ack data: 0x00
read to 0x5F ack data: 0x00
read to 0x5F ack data: 0x00
read to 0x5F ack data: 0x00
read to 0x5F ack data: 0x00
read to 0x5F ack data: 0x00
read to 0x5F ack data: 0x00
read to 0x5F ack data: 0x00
read to 0x5F ack data: 0x00
read to 0x5F ack data: 0x00
read to 0x5F ack data: 0x00
read to 0x5F ack data: 0x00
read to 0x5F ack data: 0x00
read to 0x5F ack data: 0x00
read to 0x5F ack data: 0x00
read to 0x5F ack data: 0x00
read to 0x5F ack data: 0x00
read to 0x5F ack data: 0x00
read to 0x5F ack data: 0x00
read to 0x5F ack data: 0x00
read to 0x5F ack data: 0x00
read to 0x5F ack data: 0x00
read to 0x5F ack data: 0x00
read to 0x5F ack data: 0x00
read to 0x5F ack data: 0x00
read to 0x5F ack data: 0x00
read to 0x5F ack data: 0x00
read to 0x5F ack data: 0x00
read to 0x5F ack data: 0x00
read to 0x5F ack data: 0x00
read to 0x5F ack data: 0x00
read to 0x5F ack data: 0x00
read to 0x5F ack data: 0x00
read to 0x5F ack data: 0x00
read to 0x5F ack data: 0x00
read to 0x5F ack data: 0x00
read to 0x5F ack data: 0x00
read to 0x5F ack data: 0x00
read to 0x5F ack data: 0x00
read to 0x5F ack data: 0x00
read to 0x5F ack data: 0x00
read to 0x5F ack data: 0x00
read to 0x5F ack data: 0x00
read to 0x5F ack data: 0x00
read to 0x5F ack data: 0x00
read to 0x5F ack data: 0x00
read to 0x5F ack data: 0x00
read to 0x5F ack data: 0x00
read to 0x5F ack data: 0x00
read to 0x5F ack data: 0x00
read to 0x5F ack data: 0x00
read to 0x5F ack data: 0x00
read to 0x5F ack data: 0x00
read to 0x5F ack data: 0x00
read to 0x5F ack data: 0x00
read to 0x5F ack data: 0x00
read to 0x5F ack data: 0x00
read to 0x5F ack data: 0x00
read to 0x5F ack data: 0x00
read to 0x5F ack data: 0x00
read to 0x5F ack data: 0x00
read to 0x5F ack data: 0x00
read to 0x5F ack data: 0x00
read to 0x5F ack data: 0x00
read to 0x5F ack data: 0x00
read to 0x5F ack data: 0x00
read to 0x5F ack data: 0x00
read to 0x5F ack data: 0x00
read to 0x5F ack data: 0x00
read to 0x5F ack data: 0x00
read to 0x5F ack data: 0x00
read to 0x5F ack data: 0x00
read to 0x5F ack data: 0x00
read to 0x5F ack data: 0x00
read to 0x5F ack data: 0x00
read to 0x5F ack data: 0x00
read to 0x5F ack data: 0x00
read to 0x5F ack data: 0x00
read to 0x5F ack data: 0x00
read to 0x5F ack data: 0x00
read to 0x5F ack data: 0x00
read to 0x5F ack data: 0x00
read to 0x5F ack data: 0x00
read to 0x5F ack data: 0x00
read to 0x5F ack data: 0x00
read to 0x5F ack data: 0x00
read to 0x5F ack data: 0x00
read to 0x5F ack data: 0x00
read to 0x5F ack data: 0x00
read to 0x5F ack data: 0x00
read to 0x5F ack data: 0x00
read to 0x5F ack data: 0x00
read to 0x5F ack data: 0x00
read to 0x5F ack data: 0x00
read to 0x5F ack data: 0x00
read to 0x5F ack data: 0x00
read to 0x5F ack data: 0x00
read to 0x5F ack data: 0x00
read to 0x5F ack data: 0x00
read to 0x5F ack data: 0x00
read to 0x5F ack data: 0x00
read to 0x5F ack data: 0x00
read to 0x5F ack data: 0x00
read to 0x5F ack data: 0x00
read to 0x5F ack data: 0x00
read to 0x5F ack data: 0x00
read to 0x5F ack data: 0x00
read to 0x5F ack data: 0x00
read to 0x5F ack data: 0x00
read to 0x5F ack data: 0x00
read to 0x5F ack data: 0x00
read to 0x5F ack data: 0x00
read to 0x5F ack data: 0x00
read to 0x5F ack data: 0x00
read to 0x5F ack data: 0x00
read to 0x5F ack data: 0x00
read to 0x5F ack data: 0x00
read to 0x5F ack data: 0x00
read to 0x5F ack data: 0x00
read to 0x5F ack data: 0x00
read to 0x5F ack data: 0x00
read to 0x5F ack data: 0x00
read to 0x5F ack data: 0x00
read to 0x5F ack data: 0x00
read to 0x5F ack data: 0x00
read to 0x5F ack data: 0x00
read to 0x5F ack data: 0x00
read to 0x5F ack data: 0x00
read to 0x5F ack data: 0x00
read to 0x5F ack data: 0x00
read to 0x5F ack data: 0x00
read to 0x5F ack data: 0x00
read to 0x5F ack data: 0x00
read to 0x5F ack data: 0x00
read to 0x5F ack data: 0x00
read to 0x5F ack data: 0x00
read to 0x5F ack data: 0x00
read to 0x5F ack data: 0x00
read to 0x5F ack data: 0x00
read to 0x5F ack data: 0x00
read to 0x5F ack data: 0x00
read to 0x5F ack data: 0x00
read to 0x5F ack data: 0x00
read to 0x5F ack data: 0x00
read to 0x5F ack data: 0x00
read to 0x5F ack data: 0x00
read to 0x5F ack data: 0x00
read to 0x5F ack data: 0x00
read to 0x5F ack data: 0x00
read to 0x5F ack data: 0x00
read to 0x5F ack data: 0x00
read to 0x5F ack data: 0x00
read to 0x5F ack data: 0x00
read to 0x5F ack data: 0x00
read to 0x5F ack data: 0x00
read to 0x5F ack data: 0x00
read to 0x5F ack data: 0x00
read to 0x5F ack data: 0x00
read to 0x5F ack data: 0x00
read to 0x5F ack data: 0x00
read to 0x5F ack data: 0x00
read to 0x5F ack data: 0x00
read to 0x5F ack data: 0x00
read to 0x5F ack data: 0x00
read to 0x5F ack data: 0x00
read to 0x5F ack data: 0x00
read to 0x5F ack data: 0x00
read to 0x5F ack data: 0x00
read to 0x5F ack data: 0x00
read to 0x5F ack data: 0x00
read to 0x5F ack data: 0x00
read to 0x5F ack data: 0x00
read to 0x5F ack data: 0x00
read to 0x5F ack data: 0x00
read to 0x5F ack data: 0x00
read to 0x5F ack data: 0x00
read to 0x5F ack data: 0x00
read to 0x5F ack data: 0x00
read to 0x5F ack data: 0x00
read to 0x5F ack data: 0x00
read to 0x5F ack data: 0x00
read to 0x5F ack data: 0x00
read to 0x5F ack data: 0x00
read to 0x5F ack data: 0x00
read to 0x5F ack data: 0x00
read to 0x5F ack data: 0x00
read to 0x5F ack data: 0x00
read to 0x5F ack data: 0x00
read to 0x5F ack data: 0x00
read to 0x5F ack data: 0x00
read to 0x5F ack data: 0x00
read to 0x5F ack data: 0x00
read to 0x5F ack data: 0x00
read to 0x5F ack data: 0x00
read to 0x5F ack data: 0x00
read to 0x5F ack data: 0x00
read to 0x5F ack data: 0x00
read to 0x5F ack data: 0x00
read to 0x5F ack data: 0x00
read to 0x5F ack data: 0x00
read to 0x5F ack data: 0x00
read to 0x5F ack data: 0x00
read to 0x5F ack data: 0x00
read to 0x5F ack data: 0x00
read to 0x5F ack data: 0x00
read to 0x5F ack data: 0x00
read to 0x5F ack data: 0x00
read to 0x5F ack data: 0x00
read to 0x5F ack data: 0x01
read to 0x5F ack data: 0x00
read to 0x5F ack data: 0x00
read to 0x5F ack data: 0x00
read to 0x5F ack data: 0x00
read to 0x5F ack data: 0x00
read to 0x5F ack data: 0x00
read to 0x5F ack data: 0x00
read to 0x5F ack data: 0x00
read to 0x5F ack data: 0x00
read to 0x5F ack data: 0x00
read to 0x5F ack data: 0x00
read to 0x5F ack data: 0x00
read to 0x5F ack data: 0x00
read to 0x5F ack data: 0x00
read to 0x5F ack data: 0x00
read to 0x5F ack data: 0x00
read to 0x5F ack data: 0x00
read to 0x5F ack data: 0x00
read to 0x5F ack data: 0x00
read to 0x5F ack data: 0x00
read to 0x5F ack data: 0x00
read to 0x5F ack data: 0x00
read to 0x5F ack data: 0x00
read to 0x5F ack data: 0x00
read to 0x5F ack data: 0x00
read to 0x5F ack data: 0x00
read to 0x5F ack data: 0x00
read to 0x5F ack data: 0x00
read to 0x5F ack data: 0x00
read to 0x5F ack data: 0x00
read to 0x5F ack data: 0x00
read to 0x5F ack data: 0x00
read to 0x5F ack data: 0x00
read to 0x5F ack data: 0x00
read to 0x5F ack data: 0x00
read to 0x5F ack data: 0x00
read to 0x5F ack data: 0x00
read to 0x5F ack data: 0x00
read to 0x5F ack data: 0x00
read to 0x5F ack data: 0x00
read to 0x5F ack data: 0x00
read to 0x5F ack data: 0x00
read to 0x5F ack data: 0x00
read to 0x5F ack data: 0x00
read to 0x5F ack data: 0x00
read to 0x5F ack data: 0x00
read to 0x5F ack data: 0x00
read to 0x5F ack data: 0x00
read to 0x5F ack data: 0x00
read to 0x5F ack data: 0x00
read to 0x5F ack data: 0x00
read to 0x5F ack data: 0x00
read to 0x5F ack data: 0x00
read to 0x5F ack data: 0x00
read to 0x5F ack data: 0x00
read to 0x5F ack data: 0x00
read to 0x5F ack data: 0x00
read to 0x5F ack data: 0x00
read to 0x5F ack data: 0x00
read to 0x5F ack data: 0x00
read to 0x5F ack data: 0x00
read to 0x5F ack data: 0x00
read to 0x5F ack data: 0x00
read to 0x5F ack data: 0x00
read to 0x5F ack data: 0x00
read to 0x5F ack data: 0x00
read to 0x5F ack data: 0x00
read to 0x5F ack data: 0x00
read to 0x5F ack data: 0x00
read to 0x5F ack data: 0x00
read to 0x5F ack data: 0x00
read to 0x5F ack data: 0x00
read to 0x5F ack data: 0x00
read to 0x5F ack data: 0x00
read to 0x5F ack data: 0x00
read to 0x5F ack data: 0x00
read to 0x5F ack data: 0x00
read to 0x5F ack data: 0x00
read to 0x5F ack data: 0x00
read to 0x5F ack data: 0x00
read to 0x5F ack data: 0x00
read to 0x5F ack data: 0x00
read to 0x5F ack data: 0x00
read to 0x5F ack data: 0x00
read to 0x5F ack data: 0x00
read to 0x5F ack data: 0x00
read to 0x5F ack data: 0x00
read to 0x5F ack data: 0x00
read to 0x5F ack data: 0x00
read to 0x5F ack data: 0x00
read to 0x5F ack data: 0x00
read to 0x5F ack data: 0x00
read to 0x5F ack data: 0x00
read to 0x5F ack data: 0x00
read to 0x5F ack data: 0x00
read to 0x5F ack data: 0x00
read to 0x5F ack data: 0x00
read to 0x5F ack data: 0x00
read to 0x5F ack data: 0x00
read to 0x5F ack data: 0x00
read to 0x5F ack data: 0x00
read to 0x5F ack data: 0x00
read to 0x5F ack data: 0x00
read to 0x5F ack data: 0x66
read to 0x5F ack data: 0x00
read to 0x5F ack data: 0x00
read to 0x5F ack data: 0x00
read to 0x5F ack data: 0x00
read to 0x5F ack data: 0x00
read to 0x5F ack data: 0x6C
read to 0x5F ack data: 0x00
read to 0x5F ack data: 0x00
read to 0x5F ack data: 0x00
read to 0x5F ack data: 0x00
read to 0x5F ack data: 0x00
read to 0x5F ack data: 0x00
read to 0x5F ack data: 0x00
read to 0x5F ack data: 0x00
read to 0x5F ack data: 0x00
read to 0x5F ack data: 0x00
read to 0x5F ack data: 0x00
read to 0x5F ack data: 0x61
read to 0x5F ack data: 0x00
read to 0x5F ack data: 0x00
read to 0x5F ack data: 0x00
read to 0x5F ack data: 0x00
read to 0x5F ack data: 0x00
read to 0x5F ack data: 0x00
read to 0x5F ack data: 0x67
read to 0x5F ack data: 0x00
read to 0x5F ack data: 0x00
read to 0x5F ack data: 0x00
read to 0x5F ack data: 0x00
read to 0x5F ack data: 0x00
read to 0x5F ack data: 0x00
read to 0x5F ack data: 0x00
read to 0x5F ack data: 0x00
read to 0x5F ack data: 0x00
read to 0x5F ack data: 0x00
read to 0x5F ack data: 0x00
read to 0x5F ack data: 0x00
read to 0x5F ack data: 0x00
read to 0x5F ack data: 0x00
read to 0x5F ack data: 0x00
read to 0x5F ack data: 0x00
read to 0x5F ack data: 0x00
read to 0x5F ack data: 0x00
read to 0x5F ack data: 0x00
read to 0x5F ack data: 0x00
read to 0x5F ack data: 0x00
read to 0x5F ack data: 0x00
read to 0x5F ack data: 0x00
read to 0x5F ack data: 0x00
read to 0x5F ack data: 0x00
read to 0x5F ack data: 0x00
read to 0x5F ack data: 0x00
read to 0x5F ack data: 0x00
read to 0x5F ack data: 0x00
read to 0x5F ack data: 0x00
read to 0x5F ack data: 0x00
read to 0x5F ack data: 0x00
read to 0x5F ack data: 0x00
read to 0x5F ack data: 0x00
read to 0x5F ack data: 0x00
read to 0x5F ack data: 0x7B
read to 0x5F ack data: 0x00
read to 0x5F ack data: 0x00
read to 0x5F ack data: 0x00
read to 0x5F ack data: 0x00
read to 0x5F ack data: 0x00
read to 0x5F ack data: 0x00
read to 0x5F ack data: 0x00
read to 0x5F ack data: 0x00
read to 0x5F ack data: 0x00
read to 0x5F ack data: 0x00
read to 0x5F ack data: 0x00
read to 0x5F ack data: 0x00
read to 0x5F ack data: 0x00
read to 0x5F ack data: 0x00
read to 0x5F ack data: 0x00
read to 0x5F ack data: 0x00
read to 0x5F ack data: 0x00
read to 0x5F ack data: 0x00
read to 0x5F ack data: 0x00
read to 0x5F ack data: 0x00
read to 0x5F ack data: 0x00
read to 0x5F ack data: 0x00
read to 0x5F ack data: 0x00
read to 0x5F ack data: 0x00
read to 0x5F ack data: 0x00
read to 0x5F ack data: 0x00
read to 0x5F ack data: 0x00
read to 0x5F ack data: 0x00
read to 0x5F ack data: 0x00
read to 0x5F ack data: 0x00
read to 0x5F ack data: 0x00
read to 0x5F ack data: 0x00
read to 0x5F ack data: 0x00
read to 0x5F ack data: 0x00
read to 0x5F ack data: 0x00
read to 0x5F ack data: 0x00
read to 0x5F ack data: 0x00
read to 0x5F ack data: 0x00
read to 0x5F ack data: 0x00
read to 0x5F ack data: 0x00
read to 0x5F ack data: 0x00
read to 0x5F ack data: 0x00
read to 0x5F ack data: 0x37
read to 0x5F ack data: 0x00
read to 0x5F ack data: 0x01
read to 0x5F ack data: 0x00
read to 0x5F ack data: 0x00
read to 0x5F ack data: 0x00
read to 0x5F ack data: 0x31
read to 0x5F ack data: 0x00
read to 0x5F ack data: 0x00
read to 0x5F ack data: 0x00
read to 0x5F ack data: 0x00
read to 0x5F ack data: 0x00
read to 0x5F ack data: 0x37
read to 0x5F ack data: 0x00
read to 0x5F ack data: 0x00
read to 0x5F ack data: 0x00
read to 0x5F ack data: 0x00
read to 0x5F ack data: 0x00
read to 0x5F ack data: 0x00
read to 0x5F ack data: 0x00
read to 0x5F ack data: 0x00
read to 0x5F ack data: 0x00
read to 0x5F ack data: 0x00
read to 0x5F ack data: 0x00
read to 0x5F ack data: 0x00
read to 0x5F ack data: 0x00
read to 0x5F ack data: 0x00
read to 0x5F ack data: 0x00
read to 0x5F ack data: 0x00
read to 0x5F ack data: 0x00
read to 0x5F ack data: 0x00
read to 0x5F ack data: 0x00
read to 0x5F ack data: 0x00
read to 0x5F ack data: 0x00
read to 0x5F ack data: 0x00
read to 0x5F ack data: 0x00
read to 0x5F ack data: 0x00
read to 0x5F ack data: 0x00
read to 0x5F ack data: 0x00
read to 0x5F ack data: 0x00
read to 0x5F ack data: 0x00
read to 0x5F ack data: 0x00
read to 0x5F ack data: 0x66
read to 0x5F ack data: 0x00
read to 0x5F ack data: 0x00
read to 0x5F ack data: 0x00
read to 0x5F ack data: 0x00
read to 0x5F ack data: 0x00
read to 0x5F ack data: 0x00
read to 0x5F ack data: 0x00
read to 0x5F ack data: 0x37
read to 0x5F ack data: 0x00
read to 0x5F ack data: 0x00
read to 0x5F ack data: 0x00
read to 0x5F ack data: 0x00
read to 0x5F ack data: 0x00
read to 0x5F ack data: 0x00
read to 0x5F ack data: 0x00
read to 0x5F ack data: 0x00
read to 0x5F ack data: 0x00
read to 0x5F ack data: 0x00
read to 0x5F ack data: 0x00
read to 0x5F ack data: 0x00
read to 0x5F ack data: 0x00
read to 0x5F ack data: 0x00
read to 0x5F ack data: 0x00
read to 0x5F ack data: 0x00
read to 0x5F ack data: 0x00
read to 0x5F ack data: 0x00
read to 0x5F ack data: 0x00
read to 0x5F ack data: 0x00
read to 0x5F ack data: 0x00
read to 0x5F ack data: 0x00
read to 0x5F ack data: 0x00
read to 0x5F ack data: 0x00
read to 0x5F ack data: 0x00
read to 0x5F ack data: 0x00
read to 0x5F ack data: 0x00
read to 0x5F ack data: 0x00
read to 0x5F ack data: 0x00
read to 0x5F ack data: 0x00
read to 0x5F ack data: 0x00
read to 0x5F ack data: 0x35
read to 0x5F ack data: 0x00
read to 0x5F ack data: 0x01
read to 0x5F ack data: 0x00
read to 0x5F ack data: 0x00
read to 0x5F ack data: 0x00
read to 0x5F ack data: 0x00
read to 0x5F ack data: 0x00
read to 0x5F ack data: 0x00
read to 0x5F ack data: 0x33
read to 0x5F ack data: 0x00
read to 0x5F ack data: 0x00
read to 0x5F ack data: 0x00
read to 0x5F ack data: 0x00
read to 0x5F ack data: 0x00
read to 0x5F ack data: 0x00
read to 0x5F ack data: 0x32
read to 0x5F ack data: 0x00
read to 0x5F ack data: 0x00
read to 0x5F ack data: 0x00
read to 0x5F ack data: 0x00
read to 0x5F ack data: 0x00
read to 0x5F ack data: 0x00
read to 0x5F ack data: 0x00
read to 0x5F ack data: 0x00
read to 0x5F ack data: 0x00
read to 0x5F ack data: 0x00
read to 0x5F ack data: 0x00
read to 0x5F ack data: 0x00
read to 0x5F ack data: 0x00
read to 0x5F ack data: 0x00
read to 0x5F ack data: 0x00
read to 0x5F ack data: 0x00
read to 0x5F ack data: 0x00
read to 0x5F ack data: 0x00
read to 0x5F ack data: 0x00
read to 0x5F ack data: 0x00
read to 0x5F ack data: 0x00
read to 0x5F ack data: 0x00
read to 0x5F ack data: 0x7D
read to 0x5F ack data: 0x00
read to 0x5F ack data: 0x00
read to 0x5F ack data: 0x00
read to 0x5F ack data: 0x00
read to 0x5F ack data: 0x00
read to 0x5F ack data: 0x00
read to 0x5F ack data: 0x00
read to 0x5F ack data: 0x00
read to 0x5F ack data: 0x00
read to 0x5F ack data: 0x00
read to 0x5F ack data: 0x00
read to 0x5F ack data: 0x00
read to 0x5F ack data: 0x00
read to 0x5F ack data: 0x00
read to 0x5F ack data: 0x00
read to 0x5F ack data: 0x00
read to 0x5F ack data: 0x00
read to 0x5F ack data: 0x00
read to 0x5F ack data: 0x00
read to 0x5F ack data: 0x00
read to 0x5F ack data: 0x00
read to 0x5F ack data: 0x00
read to 0x5F ack data: 0x00
read to 0x5F ack data: 0x00
read to 0x5F ack data: 0x00
read to 0x5F ack data: 0x00
read to 0x5F ack data: 0x01
read to 0x5F ack data: 0x00
read to 0x5F ack data: 0x00
read to 0x5F ack data: 0x0D
read to 0x5F ack data: 0x00
read to 0x5F ack data: 0x00
read to 0x5F ack data: 0x00
read to 0x5F ack data: 0x00
read to 0x5F ack data: 0x00
read to 0x5F ack data: 0x00
read to 0x5F ack data: 0x00
read to 0x5F ack data: 0x00
read to 0x5F ack data: 0x00
read to 0x5F ack data: 0x00
read to 0x5F ack data: 0x00
read to 0x5F ack data: 0x00
read to 0x5F ack data: 0x00
read to 0x5F ack data: 0x00
read to 0x5F ack data: 0x00
read to 0x5F ack data: 0x00
read to 0x5F ack data: 0x00
read to 0x5F ack data: 0x00
read to 0x5F ack data: 0x00
read to 0x5F ack data: 0x00
read to 0x5F ack data: 0x00
read to 0x5F ack data: 0x00
read to 0x5F ack data: 0x00
read to 0x5F ack data: 0x00
read to 0x5F ack data: 0x00
read to 0x5F ack data: 0x00
read to 0x5F ack data: 0x00
read to 0x5F ack data: 0x00
read to 0x5F ack data: 0x00
read to 0x5F ack data: 0x00
read to 0x5F ack data: 0x00
read to 0x5F ack data: 0x00
read to 0x5F ack data: 0x00
read to 0x5F ack data: 0x00
read to 0x5F ack data: 0x00
read to 0x5F ack data: 0x00
read to 0x5F ack data: 0x00
read to 0x5F ack data: 0x00
read to 0x5F ack data: 0x00
read to 0x5F ack data: 0x00
read to 0x5F ack data: 0x00
read to 0x5F ack data: 0x00
read to 0x5F ack data: 0x00
read to 0x5F ack data: 0x00
read to 0x5F ack data: 0x00
read to 0x5F ack data: 0x00
read to 0x5F ack data: 0x00
read to 0x5F ack data: 0x00
read to 0x5F ack data: 0x00
read to 0x5F ack data: 0x00
read to 0x5F ack data: 0x00
read to 0x5F ack data: 0x00
read to 0x5F ack data: 0x00
read to 0x5F ack data: 0x00
read to 0x5F ack data: 0x00
read to 0x5F ack data: 0x00
read to 0x5F ack data: 0x00
read to 0x5F ack data: 0x00
read to 0x5F ack data: 0x00
read to 0x5F ack data: 0x00
read to 0x5F ack data: 0x00
read to 0x5F ack data: 0x00
read to 0x5F ack data: 0x00
read to 0x5F ack data: 0x00
read to 0x5F ack data: 0x00
read to 0x5F ack data: 0x00
read to 0x5F ack data: 0x00
read to 0x5F ack data: 0x00
read to 0x5F ack data: 0x00
read to 0x5F ack data: 0x00
read to 0x5F ack data: 0x00
read to 0x5F ack data: 0x00
read to 0x5F ack data: 0x00
read to 0x5F ack data: 0x00
read to 0x5F ack data: 0x00
read to 0x5F ack data: 0x00
read to 0x5F ack data: 0x00
read to 0x5F ack data: 0x00
read to 0x5F ack data: 0x00
read to 0x5F ack data: 0x00
read to 0x5F ack data: 0x00
read to 0x5F ack data: 0x00
read to 0x5F ack data: 0x00
read to 0x5F ack data: 0x00
read to 0x5F ack data: 0x00
read to 0x5F ack data: 0x00
read to 0x5F ack data: 0x00
read to 0x5F ack data: 0x00
read to 0x5F ack data: 0x00
read to 0x5F ack data: 0x00
read to 0x5F ack data: 0x00
read to 0x5F ack data: 0x00
read to 0x5F ack data: 0x00
read to 0x5F ack data: 0x00
read to 0x5F ack data: 0x00
read to 0x5F ack data: 0x00
read to 0x5F ack data: 0x00
read to 0x5F ack data: 0x00
read to 0x5F ack data: 0x00
read to 0x5F ack data: 0x00
read to 0x5F ack data: 0x00
read to 0x5F ack data: 0x00
read to 0x5F ack data: 0x00
read to 0x5F ack data: 0x00
read to 0x5F ack data: 0x00
read to 0x5F ack data: 0x00
read to 0x5F ack data: 0x00
read to 0x5F ack data: 0x00
read to 0x5F ack data: 0x00
read to 0x5F ack data: 0x00
read to 0x5F ack data: 0x00
read to 0x5F ack data: 0x00
read to 0x5F ack data: 0x00
read to 0x5F ack data: 0x00
read to 0x5F ack data: 0x00
read to 0x5F ack data: 0x00
read to 0x5F ack data: 0x00
read to 0x5F ack data: 0x00
read to 0x5F ack data: 0x00
read to 0x5F ack data: 0x00
read to 0x5F ack data: 0x00
read to 0x5F ack data: 0x00
read to 0x5F ack data: 0x00
read to 0x5F ack data: 0x00
read to 0x5F ack data: 0x00
read to 0x5F ack data: 0x00
read to 0x5F ack data: 0x00
read to 0x5F ack data: 0x00
read to 0x5F ack data: 0x00
read to 0x5F ack data: 0x00
read to 0x5F ack data: 0x00
read to 0x5F ack data: 0x00
read to 0x5F ack data: 0x00
read to 0x5F ack data: 0x00
read to 0x5F ack data: 0x00
read to 0x5F ack data: 0x00
read to 0x5F ack data: 0x00
read to 0x5F ack data: 0x00
read to 0x5F ack data: 0x00
read to 0x5F ack data: 0x00
read to 0x5F ack data: 0x00
read to 0x5F ack data: 0x00
read to 0x5F ack data: 0x00
read to 0x5F ack data: 0x00
read to 0x5F ack data: 0x00
read to 0x5F ack data: 0x00
read to 0x5F ack data: 0x00
read to 0x5F ack data: 0x00
read to 0x5F ack data: 0x00
read to 0x5F ack data: 0x00
read to 0x5F ack data: 0x00
read to 0x5F ack data: 0x00
read to 0x5F ack data: 0x00
read to 0x5F ack data: 0x00
read to 0x5F ack data: 0x00
read to 0x5F ack data: 0x00
read to 0x5F ack data: 0x00
read to 0x5F ack data: 0x00
read to 0x5F ack data: 0x00
read to 0x5F ack data: 0x00
read to 0x5F ack data: 0x00
read to 0x5F ack data: 0x00
read to 0x5F ack data: 0x00
read to 0x5F ack data: 0x00
read to 0x5F ack data: 0x00
read to 0x5F ack data: 0x00
read to 0x5F ack data: 0x00
read to 0x5F ack data: 0x00
read to 0x5F ack data: 0x00
read to 0x5F ack data: 0x00
read to 0x5F ack data: 0x01
read to 0x5F ack data: 0x00
read to 0x5F ack data: 0x00
read to 0x5F ack data: 0x00
read to 0x5F ack data: 0x00
read to 0x5F ack data: 0x00
read to 0x5F ack data: 0x00
read to 0x5F ack data: 0x00
read to 0x5F ack data: 0x00
read to 0x5F ack data: 0x00
read to 0x5F ack data: 0x00
read to 0x5F ack data: 0x00
read to 0x5F ack data: 0x00
read to 0x5F ack data: 0x00
read to 0x5F ack data: 0x00
read to 0x5F ack data: 0x00
read to 0x5F ack data: 0x00
read to 0x5F ack data: 0x00
read to 0x5F ack data: 0x00
read to 0x5F ack data: 0x00
read to 0x5F ack data: 0x00
read to 0x5F ack data: 0x00
read to 0x5F ack data: 0x00
read to 0x5F ack data: 0x00
read to 0x5F ack data: 0x00
read to 0x5F ack data: 0x00
read to 0x5F ack data: 0x00
read to 0x5F ack data: 0x00
read to 0x5F ack data: 0x00
read to 0x5F ack data: 0x00
read to 0x5F ack data: 0x00
read to 0x5F ack data: 0x00
read to 0x5F ack data: 0x00
read to 0x5F ack data: 0x00
read to 0x5F ack data: 0x00
read to 0x5F ack data: 0x00
read to 0x5F ack data: 0x00
read to 0x5F ack data: 0x00
read to 0x5F ack data: 0x00
read to 0x5F ack data: 0x00
read to 0x5F ack data: 0x00
read to 0x5F ack data: 0x00
read to 0x5F ack data: 0x00
read to 0x5F ack data: 0x00
read to 0x5F ack data: 0x00
read to 0x5F ack data: 0x00
read to 0x5F ack data: 0x00
read to 0x5F ack data: 0x00
read to 0x5F ack data: 0x00
read to 0x5F ack data: 0x00
read to 0x5F ack data: 0x00
read to 0x5F ack data: 0x00
read to 0x5F ack data: 0x00
read to 0x5F ack data: 0x00
read to 0x5F ack data: 0x00
read to 0x5F ack data: 0x00
read to 0x5F ack data: 0x00
read to 0x5F ack data: 0x00
read to 0x5F ack data: 0x00
read to 0x5F ack data: 0x00
read to 0x5F ack data: 0x00
read to 0x5F ack data: 0x00
read to 0x5F ack data: 0x00
read to 0x5F ack data: 0x00
read to 0x5F ack data: 0x00
read to 0x5F ack data: 0x00
read to 0x5F ack data: 0x00
read to 0x5F ack data: 0x00
read to 0x5F ack data: 0x00
